T9744 000:012.443   SEGGER J-Link V6.86 Log File
T9744 000:016.279   DLL Compiled: Sep 24 2020 17:31:31
T9744 000:016.283   Logging started @ 2021-11-21 01:32
T9744 000:016.286 - 16.288ms
T9744 000:018.109 JLINK_SetWarnOutHandler(...)
T9744 000:019.861 - 1.754ms
T9744 000:019.867 JLINK_OpenEx(...)
T9744 000:029.764   Firmware: J-Link V9 compiled Dec 13 2019 11:14:50
T9744 000:033.616   Decompressing FW timestamp took 3618 us
T9744 000:039.570   Hardware: V9.70
T9744 000:039.598   S/N: 59700618
T9744 000:039.603   OEM: SEGGER
T9744 000:039.609   Feature(s): RDI, FlashBP, FlashDL, JFlash, GDB
T9744 000:041.122   TELNET listener socket opened on port 19021
T9744 000:042.989   WEBSRV Starting webserver
T9744 000:043.056   WEBSRV Webserver running on local port 19080
T9744 000:043.071 - 23.216ms returns "O.K."
T9744 000:043.092 JLINK_GetEmuCaps()
T9744 000:043.096 - 0.006ms returns 0xB9FF7BBF
T9744 000:043.105 JLINK_TIF_GetAvailable(...)
T9744 000:043.234 - 0.140ms
T9744 000:043.253 JLINK_SetErrorOutHandler(...)
T9744 000:043.257 - 0.005ms
T9744 000:044.995 JLINK_ExecCommand("ProjectFile = "C:\Users\Administrator\Desktop\B站临时存放\2022-019、STM32图像识别的智慧小区出入口控制系统设计-人脸识别-TFT-舵机-KEY\2022-019\USER\JLinkSettings.ini"", ...). 
T9744 000:101.223 - 56.237ms returns 0x00
T9744 000:104.135 JLINK_ExecCommand("Device = STM32F103C8", ...). 
T9744 000:112.758   Device "STM32F103C8" selected.
T9744 000:113.220 - 9.067ms returns 0x00
T9744 000:113.234 JLINK_GetHardwareVersion()
T9744 000:113.238 - 0.005ms returns 97000
T9744 000:113.248 JLINK_GetDLLVersion()
T9744 000:113.251 - 0.005ms returns 68600
T9744 000:113.255 JLINK_GetOEMString(...)
T9744 000:113.259 JLINK_GetFirmwareString(...)
T9744 000:113.263 - 0.005ms
T9744 000:115.098 JLINK_GetDLLVersion()
T9744 000:115.105 - 0.009ms returns 68600
T9744 000:115.110 JLINK_GetCompileDateTime()
T9744 000:115.113 - 0.004ms
T9744 000:115.689 JLINK_GetFirmwareString(...)
T9744 000:115.696 - 0.009ms
T9744 000:116.183 JLINK_GetHardwareVersion()
T9744 000:116.189 - 0.008ms returns 97000
T9744 000:123.309 JLINK_GetSN()
T9744 000:123.320 - 0.012ms returns 59700618
T9744 000:124.790 JLINK_GetOEMString(...)
T9744 000:127.224 JLINK_TIF_Select(JLINKARM_TIF_SWD)
T9744 000:129.788 - 2.570ms returns 0x00
T9744 000:129.798 JLINK_HasError()
T9744 000:131.649 JLINK_SetSpeed(5000)
T9744 000:131.774 - 0.131ms
T9744 000:131.786 JLINK_GetId()
T9744 000:135.804   Found SW-DP with ID 0x2BA01477
T9744 000:148.581   Found SW-DP with ID 0x2BA01477
T9744 000:153.793   Old FW that does not support reading DPIDR via DAP jobs
T9744 000:156.072   Unknown DP version. Assuming DPv0
T9744 000:159.183   Scanning AP map to find all available APs
T9744 000:162.727   AP[1]: Stopped AP scan as end of AP map has been reached
T9744 000:164.175   AP[0]: AHB-AP (IDR: 0x24770011)
T9744 000:165.410   Iterating through AP map to find AHB-AP to use
T9744 000:167.521   AP[0]: Core found
T9744 000:168.906   AP[0]: AHB-AP ROM base: 0xE00FF000
T9744 000:172.270   CPUID register: 0x412FC231. Implementer code: 0x41 (ARM)
T9744 000:173.503   Found Cortex-M3 r2p1, Little endian.
T9744 000:274.403   -- Max. mem block: 0x00010DD0
T9744 000:274.426   CPU_ReadMem(4 bytes @ 0xE000EDF0)
T9744 000:274.924   CPU_ReadMem(4 bytes @ 0xE0002000)
T9744 000:276.749   FPUnit: 6 code (BP) slots and 2 literal slots
T9744 000:276.761   CPU_ReadMem(4 bytes @ 0xE000EDFC)
T9744 000:277.032   CPU_ReadMem(4 bytes @ 0xE0001000)
T9744 000:277.300   CPU_WriteMem(4 bytes @ 0xE0001000)
T9744 000:277.545   CPU_ReadMem(4 bytes @ 0xE000ED88)
T9744 000:277.767   CPU_WriteMem(4 bytes @ 0xE000ED88)
T9744 000:278.070   CPU_ReadMem(4 bytes @ 0xE000ED88)
T9744 000:278.301   CPU_WriteMem(4 bytes @ 0xE000ED88)
T9744 000:279.824   CoreSight components:
T9744 000:281.176   ROMTbl[0] @ E00FF000
T9744 000:281.188   CPU_ReadMem(64 bytes @ 0xE00FF000)
T9744 000:281.692   CPU_ReadMem(32 bytes @ 0xE000EFE0)
T9744 000:283.274   ROMTbl[0][0]: E000E000, CID: B105E00D, PID: 000BB000 SCS
T9744 000:283.285   CPU_ReadMem(32 bytes @ 0xE0001FE0)
T9744 000:285.071   ROMTbl[0][1]: E0001000, CID: B105E00D, PID: 003BB002 DWT
T9744 000:285.082   CPU_ReadMem(32 bytes @ 0xE0002FE0)
T9744 000:286.723   ROMTbl[0][2]: E0002000, CID: B105E00D, PID: 002BB003 FPB
T9744 000:286.734   CPU_ReadMem(32 bytes @ 0xE0000FE0)
T9744 000:288.274   ROMTbl[0][3]: E0000000, CID: B105E00D, PID: 003BB001 ITM
T9744 000:288.286   CPU_ReadMem(32 bytes @ 0xE0040FE0)
T9744 000:290.181   ROMTbl[0][4]: E0040000, CID: B105900D, PID: 003BB923 TPIU-Lite
T9744 000:290.690 - 158.910ms returns 0x2BA01477
T9744 000:290.704 JLINK_GetDLLVersion()
T9744 000:290.707 - 0.005ms returns 68600
T9744 000:290.737 JLINK_CORE_GetFound()
T9744 000:290.742 - 0.005ms returns 0x30000FF
T9744 000:290.746 JLINK_GetDebugInfo(0x100 = JLINKARM_ROM_TABLE_ADDR_INDEX)
T9744 000:290.751   Value=0xE00FF000
T9744 000:290.755 - 0.010ms returns 0
T9744 000:292.073 JLINK_GetDebugInfo(0x100 = JLINKARM_ROM_TABLE_ADDR_INDEX)
T9744 000:292.082   Value=0xE00FF000
T9744 000:292.087 - 0.015ms returns 0
T9744 000:292.091 JLINK_GetDebugInfo(0x101 = JLINKARM_DEBUG_INFO_ETM_ADDR_INDEX)
T9744 000:292.095   Value=0x00000000
T9744 000:292.100 - 0.010ms returns 0
T9744 000:292.111 JLINK_ReadMemEx(0xE0041FF0, 0x10 Bytes, Flags = 0x02000004)
T9744 000:292.135   CPU_ReadMem(16 bytes @ 0xE0041FF0)
T9744 000:292.433   Data:  00 00 00 00 00 00 00 00 00 00 00 00 00 00 00 00
T9744 000:292.440 - 0.330ms returns 16 (0x10)
T9744 000:292.445 JLINK_GetDebugInfo(0x102 = JLINKARM_DEBUG_INFO_MTB_ADDR_INDEX)
T9744 000:292.449   Value=0x00000000
T9744 000:292.453 - 0.010ms returns 0
T9744 000:292.457 JLINK_GetDebugInfo(0x103 = JLINKARM_DEBUG_INFO_TPIU_ADDR_INDEX)
T9744 000:292.461   Value=0xE0040000
T9744 000:292.466 - 0.009ms returns 0
T9744 000:292.470 JLINK_GetDebugInfo(0x104 = JLINKARM_DEBUG_INFO_ITM_ADDR_INDEX)
T9744 000:292.473   Value=0xE0000000
T9744 000:292.478 - 0.009ms returns 0
T9744 000:292.482 JLINK_GetDebugInfo(0x105 = JLINKARM_DEBUG_INFO_DWT_ADDR_INDEX)
T9744 000:292.485   Value=0xE0001000
T9744 000:292.490 - 0.009ms returns 0
T9744 000:292.494 JLINK_GetDebugInfo(0x106 = JLINKARM_DEBUG_INFO_FPB_ADDR_INDEX)
T9744 000:292.497   Value=0xE0002000
T9744 000:292.502 - 0.009ms returns 0
T9744 000:292.506 JLINK_GetDebugInfo(0x107 = JLINKARM_DEBUG_INFO_NVIC_ADDR_INDEX)
T9744 000:292.510   Value=0xE000E000
T9744 000:292.514 - 0.009ms returns 0
T9744 000:292.518 JLINK_GetDebugInfo(0x10C = JLINKARM_DEBUG_INFO_DBG_ADDR_INDEX)
T9744 000:292.522   Value=0xE000EDF0
T9744 000:292.527 - 0.009ms returns 0
T9744 000:292.531 JLINK_GetDebugInfo(0x01 = Unknown)
T9744 000:292.534   Value=0x00000000
T9744 000:292.539 - 0.009ms returns 0
T9744 000:292.543 JLINK_ReadMemU32(0xE000ED00, 0x1 Items)
T9744 000:292.549   CPU_ReadMem(4 bytes @ 0xE000ED00)
T9744 000:292.767   Data:  31 C2 2F 41
T9744 000:292.774   Debug reg: CPUID
T9744 000:292.778 - 0.237ms returns 1 (0x1)
T9744 000:292.783 JLINK_GetDebugInfo(0x10F = JLINKARM_DEBUG_INFO_HAS_CORTEX_M_SECURITY_EXT_INDEX)
T9744 000:292.787   Value=0x00000000
T9744 000:292.792 - 0.009ms returns 0
T9744 000:292.796 JLINK_HasError()
T9744 000:292.801 JLINK_SetResetType(JLINKARM_CM3_RESET_TYPE_NORMAL)
T9744 000:292.805 - 0.005ms returns JLINKARM_CM3_RESET_TYPE_NORMAL
T9744 000:292.809 JLINK_Reset()
T9744 000:292.824   CPU is running
T9744 000:292.829   CPU_WriteMem(4 bytes @ 0xE000EDF0)
T9744 000:293.070   CPU is running
T9744 000:293.077   CPU_WriteMem(4 bytes @ 0xE000EDFC)
T9744 000:294.663   Reset: Halt core after reset via DEMCR.VC_CORERESET.
T9744 000:296.346   Reset: Reset device via AIRCR.SYSRESETREQ.
T9744 000:296.356   CPU is running
T9744 000:296.363   CPU_WriteMem(4 bytes @ 0xE000ED0C)
T9744 000:349.174   CPU_ReadMem(4 bytes @ 0xE000EDF0)
T9744 000:349.427   CPU_ReadMem(4 bytes @ 0xE000EDF0)
T9744 000:349.667   CPU is running
T9744 000:349.673   CPU_WriteMem(4 bytes @ 0xE000EDF0)
T9744 000:349.925   CPU is running
T9744 000:349.931   CPU_WriteMem(4 bytes @ 0xE000EDFC)
T9744 000:355.815   CPU_ReadMem(4 bytes @ 0xE000EDF0)
T9744 000:359.789   CPU_WriteMem(4 bytes @ 0xE0002000)
T9744 000:360.070   CPU_ReadMem(4 bytes @ 0xE000EDFC)
T9744 000:360.301   CPU_ReadMem(4 bytes @ 0xE0001000)
T9744 000:360.523 - 67.717ms
T9744 000:360.534 JLINK_Halt()
T9744 000:360.537 - 0.005ms returns 0x00
T9744 000:360.568 JLINK_ReadMemU32(0xE000EDF0, 0x1 Items)
T9744 000:360.577   CPU_ReadMem(4 bytes @ 0xE000EDF0)
T9744 000:360.812   Data:  03 00 03 00
T9744 000:360.819   Debug reg: DHCSR
T9744 000:360.824 - 0.257ms returns 1 (0x1)
T9744 000:360.833 JLINK_WriteU32_64(0xE000EDF0, 0xA05F0003)
T9744 000:360.838   Debug reg: DHCSR
T9744 000:360.855   CPU_WriteMem(4 bytes @ 0xE000EDF0)
T9744 000:361.070 - 0.239ms returns 0 (0x00000000)
T9744 000:361.076 JLINK_WriteU32_64(0xE000EDFC, 0x01000000)
T9744 000:361.080   Debug reg: DEMCR
T9744 000:361.086   CPU_WriteMem(4 bytes @ 0xE000EDFC)
T9744 000:361.299 - 0.225ms returns 0 (0x00000000)
T9744 000:367.672 JLINK_GetHWStatus(...)
T9744 000:367.823 - 0.154ms returns 0
T9744 000:371.568 JLINK_GetNumBPUnits(Type = 0xFFFFFF00)
T9744 000:371.577 - 0.011ms returns 0x06
T9744 000:371.581 JLINK_GetNumBPUnits(Type = 0xF0)
T9744 000:371.585 - 0.005ms returns 0x2000
T9744 000:371.589 JLINK_GetNumWPUnits()
T9744 000:371.593 - 0.005ms returns 4
T9744 000:375.159 JLINK_GetSpeed()
T9744 000:375.167 - 0.009ms returns 4000
T9744 000:377.473 JLINK_ReadMemU32(0xE000E004, 0x1 Items)
T9744 000:377.490   CPU_ReadMem(4 bytes @ 0xE000E004)
T9744 000:377.767   Data:  01 00 00 00
T9744 000:377.778 - 0.306ms returns 1 (0x1)
T9744 000:377.784 JLINK_ReadMemU32(0xE000E004, 0x1 Items)
T9744 000:377.792   CPU_ReadMem(4 bytes @ 0xE000E004)
T9744 000:378.084   Data:  01 00 00 00
T9744 000:378.091 - 0.309ms returns 1 (0x1)
T9744 000:378.098 JLINK_WriteMemEx(0xE0001000, 0x0000001C Bytes, Flags = 0x02000004)
T9744 000:378.102   Data:  01 00 00 00 00 00 00 00 00 00 00 00 00 00 00 00 ...
T9744 000:378.364   CPU_WriteMem(28 bytes @ 0xE0001000)
T9744 000:378.748 - 0.665ms returns 0x1C
T9744 000:378.772 JLINK_Halt()
T9744 000:378.775 - 0.005ms returns 0x00
T9744 000:378.783 JLINK_IsHalted()
T9744 000:378.790 - 0.008ms returns TRUE
T9744 000:382.156 JLINK_WriteMem(0x20000000, 0x164 Bytes, ...)
T9744 000:382.165   Data:  00 BE 0A E0 0D 78 2D 06 68 40 08 24 40 00 00 D3 ...
T9744 000:382.418   CPU_WriteMem(356 bytes @ 0x20000000)
T9744 000:384.117 - 1.965ms returns 0x164
T9744 000:384.139 JLINK_HasError()
T9744 000:384.145 JLINK_WriteReg(R0, 0x08000000)
T9744 000:384.150 - 0.007ms returns 0
T9744 000:384.155 JLINK_WriteReg(R1, 0x007A1200)
T9744 000:384.158 - 0.005ms returns 0
T9744 000:384.162 JLINK_WriteReg(R2, 0x00000001)
T9744 000:384.166 - 0.005ms returns 0
T9744 000:384.170 JLINK_WriteReg(R3, 0x00000000)
T9744 000:384.174 - 0.005ms returns 0
T9744 000:384.178 JLINK_WriteReg(R4, 0x00000000)
T9744 000:384.181 - 0.005ms returns 0
T9744 000:384.185 JLINK_WriteReg(R5, 0x00000000)
T9744 000:384.189 - 0.005ms returns 0
T9744 000:384.193 JLINK_WriteReg(R6, 0x00000000)
T9744 000:384.197 - 0.005ms returns 0
T9744 000:384.201 JLINK_WriteReg(R7, 0x00000000)
T9744 000:384.205 - 0.005ms returns 0
T9744 000:384.209 JLINK_WriteReg(R8, 0x00000000)
T9744 000:384.221 - 0.013ms returns 0
T9744 000:384.225 JLINK_WriteReg(R9, 0x20000160)
T9744 000:384.228 - 0.005ms returns 0
T9744 000:384.232 JLINK_WriteReg(R10, 0x00000000)
T9744 000:384.236 - 0.005ms returns 0
T9744 000:384.240 JLINK_WriteReg(R11, 0x00000000)
T9744 000:384.243 - 0.005ms returns 0
T9744 000:384.248 JLINK_WriteReg(R12, 0x00000000)
T9744 000:384.251 - 0.005ms returns 0
T9744 000:384.255 JLINK_WriteReg(R13 (SP), 0x20001000)
T9744 000:384.259 - 0.005ms returns 0
T9744 000:384.263 JLINK_WriteReg(R14, 0x20000001)
T9744 000:384.267 - 0.005ms returns 0
T9744 000:384.271 JLINK_WriteReg(R15 (PC), 0x20000038)
T9744 000:384.278 - 0.008ms returns 0
T9744 000:384.282 JLINK_WriteReg(XPSR, 0x01000000)
T9744 000:384.285 - 0.005ms returns 0
T9744 000:384.289 JLINK_WriteReg(MSP, 0x20001000)
T9744 000:384.293 - 0.005ms returns 0
T9744 000:384.297 JLINK_WriteReg(PSP, 0x20001000)
T9744 000:384.303 - 0.007ms returns 0
T9744 000:384.307 JLINK_WriteReg(CFBP, 0x00000000)
T9744 000:384.311 - 0.005ms returns 0
T9744 000:384.315 JLINK_SetBPEx(Addr = 0x20000000, Type = 0xFFFFFFF2)
T9744 000:384.322   CPU_ReadMem(2 bytes @ 0x20000000)
T9744 000:384.552 - 0.239ms returns 0x00000001
T9744 000:384.558 JLINK_Go()
T9744 000:384.563   CPU_WriteMem(2 bytes @ 0x20000000)
T9744 000:384.773   CPU_ReadMem(4 bytes @ 0xE0001000)
T9744 000:384.962   CPU_WriteMem(4 bytes @ 0xE0002008)
T9744 000:384.968   CPU_WriteMem(4 bytes @ 0xE000200C)
T9744 000:384.973   CPU_WriteMem(4 bytes @ 0xE0002010)
T9744 000:384.978   CPU_WriteMem(4 bytes @ 0xE0002014)
T9744 000:384.984   CPU_WriteMem(4 bytes @ 0xE0002018)
T9744 000:384.988   CPU_WriteMem(4 bytes @ 0xE000201C)
T9744 000:385.929   CPU_WriteMem(4 bytes @ 0xE0001004)
T9744 000:387.945 - 3.391ms
T9744 000:387.955 JLINK_IsHalted()
T9744 000:389.835   CPU_ReadMem(2 bytes @ 0x20000000)
T9744 000:390.073 - 2.120ms returns TRUE
T9744 000:390.080 JLINK_ReadReg(R15 (PC))
T9744 000:390.085 - 0.006ms returns 0x20000000
T9744 000:390.111 JLINK_ClrBPEx(BPHandle = 0x00000001)
T9744 000:390.116 - 0.006ms returns 0x00
T9744 000:390.120 JLINK_ReadReg(R0)
T9744 000:390.126 - 0.007ms returns 0x00000000
T9744 000:390.521 JLINK_HasError()
T9744 000:390.530 JLINK_WriteReg(R0, 0x08000000)
T9744 000:390.536 - 0.007ms returns 0
T9744 000:390.540 JLINK_WriteReg(R1, 0x007A1200)
T9744 000:390.544 - 0.005ms returns 0
T9744 000:390.548 JLINK_WriteReg(R2, 0x00000001)
T9744 000:390.551 - 0.005ms returns 0
T9744 000:390.555 JLINK_WriteReg(R3, 0x00000000)
T9744 000:390.559 - 0.005ms returns 0
T9744 000:390.563 JLINK_WriteReg(R4, 0x00000000)
T9744 000:390.566 - 0.005ms returns 0
T9744 000:390.570 JLINK_WriteReg(R5, 0x00000000)
T9744 000:390.574 - 0.005ms returns 0
T9744 000:390.578 JLINK_WriteReg(R6, 0x00000000)
T9744 000:390.582 - 0.005ms returns 0
T9744 000:390.586 JLINK_WriteReg(R7, 0x00000000)
T9744 000:390.589 - 0.005ms returns 0
T9744 000:390.593 JLINK_WriteReg(R8, 0x00000000)
T9744 000:390.597 - 0.005ms returns 0
T9744 000:390.601 JLINK_WriteReg(R9, 0x20000160)
T9744 000:390.604 - 0.005ms returns 0
T9744 000:390.608 JLINK_WriteReg(R10, 0x00000000)
T9744 000:390.612 - 0.005ms returns 0
T9744 000:390.616 JLINK_WriteReg(R11, 0x00000000)
T9744 000:390.619 - 0.005ms returns 0
T9744 000:390.623 JLINK_WriteReg(R12, 0x00000000)
T9744 000:390.627 - 0.005ms returns 0
T9744 000:390.631 JLINK_WriteReg(R13 (SP), 0x20001000)
T9744 000:390.635 - 0.005ms returns 0
T9744 000:390.639 JLINK_WriteReg(R14, 0x20000001)
T9744 000:390.643 - 0.005ms returns 0
T9744 000:390.647 JLINK_WriteReg(R15 (PC), 0x2000007C)
T9744 000:390.650 - 0.005ms returns 0
T9744 000:390.654 JLINK_WriteReg(XPSR, 0x01000000)
T9744 000:390.658 - 0.005ms returns 0
T9744 000:390.662 JLINK_WriteReg(MSP, 0x20001000)
T9744 000:390.666 - 0.005ms returns 0
T9744 000:390.670 JLINK_WriteReg(PSP, 0x20001000)
T9744 000:390.673 - 0.005ms returns 0
T9744 000:390.677 JLINK_WriteReg(CFBP, 0x00000000)
T9744 000:390.681 - 0.005ms returns 0
T9744 000:390.686 JLINK_SetBPEx(Addr = 0x20000000, Type = 0xFFFFFFF2)
T9744 000:390.690 - 0.005ms returns 0x00000002
T9744 000:390.694 JLINK_Go()
T9744 000:390.702   CPU_ReadMem(4 bytes @ 0xE0001000)
T9744 000:392.671 - 1.982ms
T9744 000:392.680 JLINK_IsHalted()
T9744 000:392.891 - 0.214ms returns FALSE
T9744 000:392.899 JLINK_HasError()
T9744 000:409.645 JLINK_IsHalted()
T9744 000:409.931 - 0.292ms returns FALSE
T9744 000:409.943 JLINK_HasError()
T9744 000:414.658 JLINK_IsHalted()
T9744 000:414.986 - 0.331ms returns FALSE
T9744 000:414.993 JLINK_HasError()
T9744 000:418.643 JLINK_IsHalted()
T9744 000:418.919 - 0.279ms returns FALSE
T9744 000:418.925 JLINK_HasError()
T9744 000:421.647 JLINK_IsHalted()
T9744 000:421.896 - 0.251ms returns FALSE
T9744 000:421.902 JLINK_HasError()
T9744 000:424.637 JLINK_IsHalted()
T9744 000:424.900 - 0.269ms returns FALSE
T9744 000:424.910 JLINK_HasError()
T9744 000:428.620 JLINK_IsHalted()
T9744 000:430.504   CPU_ReadMem(2 bytes @ 0x20000000)
T9744 000:430.733 - 2.120ms returns TRUE
T9744 000:430.744 JLINK_ReadReg(R15 (PC))
T9744 000:430.751 - 0.008ms returns 0x20000000
T9744 000:430.755 JLINK_ClrBPEx(BPHandle = 0x00000002)
T9744 000:430.759 - 0.005ms returns 0x00
T9744 000:430.764 JLINK_ReadReg(R0)
T9744 000:430.767 - 0.005ms returns 0x00000000
T9744 000:482.297 JLINK_HasError()
T9744 000:482.314 JLINK_WriteReg(R0, 0x00000001)
T9744 000:482.322 - 0.009ms returns 0
T9744 000:482.327 JLINK_WriteReg(R1, 0x007A1200)
T9744 000:482.331 - 0.005ms returns 0
T9744 000:482.335 JLINK_WriteReg(R2, 0x00000001)
T9744 000:482.338 - 0.005ms returns 0
T9744 000:482.342 JLINK_WriteReg(R3, 0x00000000)
T9744 000:482.346 - 0.005ms returns 0
T9744 000:482.350 JLINK_WriteReg(R4, 0x00000000)
T9744 000:482.353 - 0.005ms returns 0
T9744 000:482.357 JLINK_WriteReg(R5, 0x00000000)
T9744 000:482.361 - 0.005ms returns 0
T9744 000:482.364 JLINK_WriteReg(R6, 0x00000000)
T9744 000:482.368 - 0.005ms returns 0
T9744 000:482.372 JLINK_WriteReg(R7, 0x00000000)
T9744 000:482.376 - 0.005ms returns 0
T9744 000:482.379 JLINK_WriteReg(R8, 0x00000000)
T9744 000:482.383 - 0.005ms returns 0
T9744 000:482.387 JLINK_WriteReg(R9, 0x20000160)
T9744 000:482.390 - 0.005ms returns 0
T9744 000:482.394 JLINK_WriteReg(R10, 0x00000000)
T9744 000:482.398 - 0.005ms returns 0
T9744 000:482.402 JLINK_WriteReg(R11, 0x00000000)
T9744 000:482.405 - 0.005ms returns 0
T9744 000:482.409 JLINK_WriteReg(R12, 0x00000000)
T9744 000:482.413 - 0.005ms returns 0
T9744 000:482.417 JLINK_WriteReg(R13 (SP), 0x20001000)
T9744 000:482.421 - 0.006ms returns 0
T9744 000:482.425 JLINK_WriteReg(R14, 0x20000001)
T9744 000:482.429 - 0.005ms returns 0
T9744 000:482.433 JLINK_WriteReg(R15 (PC), 0x2000006A)
T9744 000:482.437 - 0.005ms returns 0
T9744 000:482.442 JLINK_WriteReg(XPSR, 0x01000000)
T9744 000:482.446 - 0.005ms returns 0
T9744 000:482.450 JLINK_WriteReg(MSP, 0x20001000)
T9744 000:482.454 - 0.005ms returns 0
T9744 000:482.458 JLINK_WriteReg(PSP, 0x20001000)
T9744 000:482.462 - 0.005ms returns 0
T9744 000:482.466 JLINK_WriteReg(CFBP, 0x00000000)
T9744 000:482.469 - 0.005ms returns 0
T9744 000:482.473 JLINK_SetBPEx(Addr = 0x20000000, Type = 0xFFFFFFF2)
T9744 000:482.478 - 0.006ms returns 0x00000003
T9744 000:482.482 JLINK_Go()
T9744 000:482.494   CPU_ReadMem(4 bytes @ 0xE0001000)
T9744 000:484.568 - 2.093ms
T9744 000:484.579 JLINK_IsHalted()
T9744 000:486.370   CPU_ReadMem(2 bytes @ 0x20000000)
T9744 000:486.606 - 2.029ms returns TRUE
T9744 000:486.612 JLINK_ReadReg(R15 (PC))
T9744 000:486.617 - 0.006ms returns 0x20000000
T9744 000:486.621 JLINK_ClrBPEx(BPHandle = 0x00000003)
T9744 000:486.625 - 0.005ms returns 0x00
T9744 000:486.629 JLINK_ReadReg(R0)
T9744 000:486.632 - 0.005ms returns 0x00000000
T9744 000:490.000 JLINK_WriteMem(0x20000000, 0x164 Bytes, ...)
T9744 000:490.007   Data:  00 BE 0A E0 0D 78 2D 06 68 40 08 24 40 00 00 D3 ...
T9744 000:490.018   CPU_WriteMem(356 bytes @ 0x20000000)
T9744 000:491.635 - 1.641ms returns 0x164
T9744 000:491.660 JLINK_HasError()
T9744 000:491.666 JLINK_WriteReg(R0, 0x08000000)
T9744 000:491.672 - 0.007ms returns 0
T9744 000:491.677 JLINK_WriteReg(R1, 0x007A1200)
T9744 000:491.680 - 0.005ms returns 0
T9744 000:491.684 JLINK_WriteReg(R2, 0x00000002)
T9744 000:491.688 - 0.005ms returns 0
T9744 000:491.692 JLINK_WriteReg(R3, 0x00000000)
T9744 000:491.695 - 0.005ms returns 0
T9744 000:491.699 JLINK_WriteReg(R4, 0x00000000)
T9744 000:491.703 - 0.005ms returns 0
T9744 000:491.707 JLINK_WriteReg(R5, 0x00000000)
T9744 000:491.710 - 0.005ms returns 0
T9744 000:491.714 JLINK_WriteReg(R6, 0x00000000)
T9744 000:491.718 - 0.005ms returns 0
T9744 000:491.722 JLINK_WriteReg(R7, 0x00000000)
T9744 000:491.726 - 0.005ms returns 0
T9744 000:491.730 JLINK_WriteReg(R8, 0x00000000)
T9744 000:491.734 - 0.005ms returns 0
T9744 000:491.738 JLINK_WriteReg(R9, 0x20000160)
T9744 000:491.741 - 0.005ms returns 0
T9744 000:491.746 JLINK_WriteReg(R10, 0x00000000)
T9744 000:491.750 - 0.028ms returns 0
T9744 000:491.779 JLINK_WriteReg(R11, 0x00000000)
T9744 000:491.782 - 0.005ms returns 0
T9744 000:491.786 JLINK_WriteReg(R12, 0x00000000)
T9744 000:491.790 - 0.005ms returns 0
T9744 000:491.794 JLINK_WriteReg(R13 (SP), 0x20001000)
T9744 000:491.798 - 0.005ms returns 0
T9744 000:491.802 JLINK_WriteReg(R14, 0x20000001)
T9744 000:491.806 - 0.005ms returns 0
T9744 000:491.810 JLINK_WriteReg(R15 (PC), 0x20000038)
T9744 000:491.813 - 0.005ms returns 0
T9744 000:491.817 JLINK_WriteReg(XPSR, 0x01000000)
T9744 000:491.821 - 0.005ms returns 0
T9744 000:491.825 JLINK_WriteReg(MSP, 0x20001000)
T9744 000:491.828 - 0.005ms returns 0
T9744 000:491.832 JLINK_WriteReg(PSP, 0x20001000)
T9744 000:491.836 - 0.005ms returns 0
T9744 000:491.840 JLINK_WriteReg(CFBP, 0x00000000)
T9744 000:491.844 - 0.005ms returns 0
T9744 000:491.848 JLINK_SetBPEx(Addr = 0x20000000, Type = 0xFFFFFFF2)
T9744 000:491.855   CPU_ReadMem(2 bytes @ 0x20000000)
T9744 000:492.145 - 0.303ms returns 0x00000004
T9744 000:492.156 JLINK_Go()
T9744 000:492.163   CPU_WriteMem(2 bytes @ 0x20000000)
T9744 000:492.436   CPU_ReadMem(4 bytes @ 0xE0001000)
T9744 000:494.397 - 2.250ms
T9744 000:494.414 JLINK_IsHalted()
T9744 000:496.207   CPU_ReadMem(2 bytes @ 0x20000000)
T9744 000:496.458 - 2.050ms returns TRUE
T9744 000:496.471 JLINK_ReadReg(R15 (PC))
T9744 000:496.478 - 0.008ms returns 0x20000000
T9744 000:496.483 JLINK_ClrBPEx(BPHandle = 0x00000004)
T9744 000:496.487 - 0.005ms returns 0x00
T9744 000:496.517 JLINK_ReadReg(R0)
T9744 000:496.522 - 0.006ms returns 0x00000000
T9744 000:496.741 JLINK_WriteMem(0x20000164, 0x29C Bytes, ...)
T9744 000:496.748   Data:  38 09 00 20 15 02 00 08 79 20 00 08 79 09 00 08 ...
T9744 000:496.761   CPU_WriteMem(668 bytes @ 0x20000164)
T9744 000:499.449 - 2.713ms returns 0x29C
T9744 000:499.458 JLINK_WriteMem(0x20000400, 0x164 Bytes, ...)
T9744 000:499.462   Data:  D4 E9 01 21 30 46 90 47 20 6A 40 1C 20 62 6D 1E ...
T9744 000:499.472   CPU_WriteMem(356 bytes @ 0x20000400)
T9744 000:501.123 - 1.668ms returns 0x164
T9744 000:501.131 JLINK_HasError()
T9744 000:501.136 JLINK_WriteReg(R0, 0x08000000)
T9744 000:501.141 - 0.007ms returns 0
T9744 000:501.146 JLINK_WriteReg(R1, 0x00000400)
T9744 000:501.151 - 0.007ms returns 0
T9744 000:501.155 JLINK_WriteReg(R2, 0x20000164)
T9744 000:501.158 - 0.005ms returns 0
T9744 000:501.162 JLINK_WriteReg(R3, 0x00000000)
T9744 000:501.166 - 0.005ms returns 0
T9744 000:501.170 JLINK_WriteReg(R4, 0x00000000)
T9744 000:501.173 - 0.005ms returns 0
T9744 000:501.177 JLINK_WriteReg(R5, 0x00000000)
T9744 000:501.181 - 0.005ms returns 0
T9744 000:501.185 JLINK_WriteReg(R6, 0x00000000)
T9744 000:501.188 - 0.005ms returns 0
T9744 000:501.192 JLINK_WriteReg(R7, 0x00000000)
T9744 000:501.196 - 0.005ms returns 0
T9744 000:501.200 JLINK_WriteReg(R8, 0x00000000)
T9744 000:501.203 - 0.005ms returns 0
T9744 000:501.207 JLINK_WriteReg(R9, 0x20000160)
T9744 000:501.211 - 0.005ms returns 0
T9744 000:501.215 JLINK_WriteReg(R10, 0x00000000)
T9744 000:501.219 - 0.005ms returns 0
T9744 000:501.223 JLINK_WriteReg(R11, 0x00000000)
T9744 000:501.226 - 0.005ms returns 0
T9744 000:501.231 JLINK_WriteReg(R12, 0x00000000)
T9744 000:501.234 - 0.005ms returns 0
T9744 000:501.238 JLINK_WriteReg(R13 (SP), 0x20001000)
T9744 000:501.242 - 0.005ms returns 0
T9744 000:501.246 JLINK_WriteReg(R14, 0x20000001)
T9744 000:501.250 - 0.005ms returns 0
T9744 000:501.254 JLINK_WriteReg(R15 (PC), 0x200000F4)
T9744 000:501.258 - 0.005ms returns 0
T9744 000:501.262 JLINK_WriteReg(XPSR, 0x01000000)
T9744 000:501.266 - 0.005ms returns 0
T9744 000:501.270 JLINK_WriteReg(MSP, 0x20001000)
T9744 000:501.274 - 0.005ms returns 0
T9744 000:501.278 JLINK_WriteReg(PSP, 0x20001000)
T9744 000:501.281 - 0.005ms returns 0
T9744 000:501.286 JLINK_WriteReg(CFBP, 0x00000000)
T9744 000:501.291 - 0.007ms returns 0
T9744 000:501.295 JLINK_SetBPEx(Addr = 0x20000000, Type = 0xFFFFFFF2)
T9744 000:501.299 - 0.005ms returns 0x00000005
T9744 000:501.303 JLINK_Go()
T9744 000:501.312   CPU_ReadMem(4 bytes @ 0xE0001000)
T9744 000:503.450 - 2.152ms
T9744 000:503.460 JLINK_IsHalted()
T9744 000:503.722 - 0.265ms returns FALSE
T9744 000:503.730 JLINK_HasError()
T9744 000:509.384 JLINK_IsHalted()
T9744 000:509.618 - 0.236ms returns FALSE
T9744 000:509.624 JLINK_HasError()
T9744 000:511.376 JLINK_IsHalted()
T9744 000:511.638 - 0.268ms returns FALSE
T9744 000:511.649 JLINK_HasError()
T9744 000:514.426 JLINK_IsHalted()
T9744 000:514.676 - 0.262ms returns FALSE
T9744 000:514.709 JLINK_HasError()
T9744 000:517.360 JLINK_IsHalted()
T9744 000:517.595 - 0.237ms returns FALSE
T9744 000:517.601 JLINK_HasError()
T9744 000:519.360 JLINK_IsHalted()
T9744 000:519.559 - 0.204ms returns FALSE
T9744 000:519.568 JLINK_HasError()
T9744 000:525.340 JLINK_IsHalted()
T9744 000:527.246   CPU_ReadMem(2 bytes @ 0x20000000)
T9744 000:527.471 - 2.136ms returns TRUE
T9744 000:527.480 JLINK_ReadReg(R15 (PC))
T9744 000:527.486 - 0.007ms returns 0x20000000
T9744 000:527.490 JLINK_ClrBPEx(BPHandle = 0x00000005)
T9744 000:527.494 - 0.005ms returns 0x00
T9744 000:527.498 JLINK_ReadReg(R0)
T9744 000:527.502 - 0.005ms returns 0x00000000
T9744 000:527.754 JLINK_WriteMem(0x20000164, 0x29C Bytes, ...)
T9744 000:527.760   Data:  88 47 05 46 02 F0 51 FB 00 28 EE D1 01 2F 0A D0 ...
T9744 000:527.771   CPU_WriteMem(668 bytes @ 0x20000164)
T9744 000:530.392 - 2.644ms returns 0x29C
T9744 000:530.403 JLINK_WriteMem(0x20000400, 0x164 Bytes, ...)
T9744 000:530.407   Data:  C0 09 AC E8 C0 09 8D 46 70 47 10 B5 04 46 AF F3 ...
T9744 000:530.417   CPU_WriteMem(356 bytes @ 0x20000400)
T9744 000:532.095 - 1.698ms returns 0x164
T9744 000:532.105 JLINK_HasError()
T9744 000:532.111 JLINK_WriteReg(R0, 0x08000400)
T9744 000:532.116 - 0.007ms returns 0
T9744 000:532.120 JLINK_WriteReg(R1, 0x00000400)
T9744 000:532.124 - 0.005ms returns 0
T9744 000:532.128 JLINK_WriteReg(R2, 0x20000164)
T9744 000:532.131 - 0.005ms returns 0
T9744 000:532.135 JLINK_WriteReg(R3, 0x00000000)
T9744 000:532.139 - 0.005ms returns 0
T9744 000:532.143 JLINK_WriteReg(R4, 0x00000000)
T9744 000:532.146 - 0.005ms returns 0
T9744 000:532.150 JLINK_WriteReg(R5, 0x00000000)
T9744 000:532.154 - 0.005ms returns 0
T9744 000:532.158 JLINK_WriteReg(R6, 0x00000000)
T9744 000:532.161 - 0.005ms returns 0
T9744 000:532.165 JLINK_WriteReg(R7, 0x00000000)
T9744 000:532.169 - 0.005ms returns 0
T9744 000:532.173 JLINK_WriteReg(R8, 0x00000000)
T9744 000:532.176 - 0.005ms returns 0
T9744 000:532.180 JLINK_WriteReg(R9, 0x20000160)
T9744 000:532.184 - 0.005ms returns 0
T9744 000:532.188 JLINK_WriteReg(R10, 0x00000000)
T9744 000:532.191 - 0.005ms returns 0
T9744 000:532.195 JLINK_WriteReg(R11, 0x00000000)
T9744 000:532.199 - 0.005ms returns 0
T9744 000:532.203 JLINK_WriteReg(R12, 0x00000000)
T9744 000:532.206 - 0.005ms returns 0
T9744 000:532.210 JLINK_WriteReg(R13 (SP), 0x20001000)
T9744 000:532.214 - 0.005ms returns 0
T9744 000:532.218 JLINK_WriteReg(R14, 0x20000001)
T9744 000:532.222 - 0.005ms returns 0
T9744 000:532.226 JLINK_WriteReg(R15 (PC), 0x200000F4)
T9744 000:532.229 - 0.005ms returns 0
T9744 000:532.233 JLINK_WriteReg(XPSR, 0x01000000)
T9744 000:532.237 - 0.005ms returns 0
T9744 000:532.241 JLINK_WriteReg(MSP, 0x20001000)
T9744 000:532.244 - 0.005ms returns 0
T9744 000:532.248 JLINK_WriteReg(PSP, 0x20001000)
T9744 000:532.252 - 0.005ms returns 0
T9744 000:532.256 JLINK_WriteReg(CFBP, 0x00000000)
T9744 000:532.260 - 0.005ms returns 0
T9744 000:532.264 JLINK_SetBPEx(Addr = 0x20000000, Type = 0xFFFFFFF2)
T9744 000:532.268 - 0.006ms returns 0x00000006
T9744 000:532.272 JLINK_Go()
T9744 000:532.280   CPU_ReadMem(4 bytes @ 0xE0001000)
T9744 000:534.286 - 2.017ms
T9744 000:534.293 JLINK_IsHalted()
T9744 000:534.517 - 0.225ms returns FALSE
T9744 000:534.523 JLINK_HasError()
T9744 000:538.295 JLINK_IsHalted()
T9744 000:538.517 - 0.224ms returns FALSE
T9744 000:538.523 JLINK_HasError()
T9744 000:540.288 JLINK_IsHalted()
T9744 000:540.525 - 0.239ms returns FALSE
T9744 000:540.531 JLINK_HasError()
T9744 000:542.291 JLINK_IsHalted()
T9744 000:542.532 - 0.245ms returns FALSE
T9744 000:542.539 JLINK_HasError()
T9744 000:544.276 JLINK_IsHalted()
T9744 000:544.490 - 0.217ms returns FALSE
T9744 000:544.496 JLINK_HasError()
T9744 000:546.281 JLINK_IsHalted()
T9744 000:546.498 - 0.220ms returns FALSE
T9744 000:546.504 JLINK_HasError()
T9744 000:548.277 JLINK_IsHalted()
T9744 000:548.490 - 0.215ms returns FALSE
T9744 000:548.498 JLINK_HasError()
T9744 000:550.266 JLINK_IsHalted()
T9744 000:550.486 - 0.222ms returns FALSE
T9744 000:550.492 JLINK_HasError()
T9744 000:556.284 JLINK_IsHalted()
T9744 000:558.272   CPU_ReadMem(2 bytes @ 0x20000000)
T9744 000:558.538 - 2.257ms returns TRUE
T9744 000:558.545 JLINK_ReadReg(R15 (PC))
T9744 000:558.550 - 0.007ms returns 0x20000000
T9744 000:558.555 JLINK_ClrBPEx(BPHandle = 0x00000006)
T9744 000:558.558 - 0.005ms returns 0x00
T9744 000:558.562 JLINK_ReadReg(R0)
T9744 000:558.566 - 0.005ms returns 0x00000000
T9744 000:558.818 JLINK_WriteMem(0x20000164, 0x29C Bytes, ...)
T9744 000:558.825   Data:  14 80 91 F8 03 C0 BC F1 48 0F 07 D1 00 F1 08 0C ...
T9744 000:558.836   CPU_WriteMem(668 bytes @ 0x20000164)
T9744 000:561.473 - 2.661ms returns 0x29C
T9744 000:561.484 JLINK_WriteMem(0x20000400, 0x164 Bytes, ...)
T9744 000:561.488   Data:  D3 DB BD E8 FC 9F 00 00 30 B5 04 46 0D 46 29 46 ...
T9744 000:561.498   CPU_WriteMem(356 bytes @ 0x20000400)
T9744 000:563.118 - 1.662ms returns 0x164
T9744 000:563.169 JLINK_HasError()
T9744 000:563.204 JLINK_WriteReg(R0, 0x08000800)
T9744 000:563.212 - 0.010ms returns 0
T9744 000:563.216 JLINK_WriteReg(R1, 0x00000400)
T9744 000:563.220 - 0.005ms returns 0
T9744 000:563.225 JLINK_WriteReg(R2, 0x20000164)
T9744 000:563.229 - 0.005ms returns 0
T9744 000:563.233 JLINK_WriteReg(R3, 0x00000000)
T9744 000:563.236 - 0.005ms returns 0
T9744 000:563.240 JLINK_WriteReg(R4, 0x00000000)
T9744 000:563.244 - 0.005ms returns 0
T9744 000:563.248 JLINK_WriteReg(R5, 0x00000000)
T9744 000:563.251 - 0.005ms returns 0
T9744 000:563.255 JLINK_WriteReg(R6, 0x00000000)
T9744 000:563.259 - 0.005ms returns 0
T9744 000:563.262 JLINK_WriteReg(R7, 0x00000000)
T9744 000:563.266 - 0.005ms returns 0
T9744 000:563.270 JLINK_WriteReg(R8, 0x00000000)
T9744 000:563.274 - 0.005ms returns 0
T9744 000:563.278 JLINK_WriteReg(R9, 0x20000160)
T9744 000:563.281 - 0.005ms returns 0
T9744 000:563.286 JLINK_WriteReg(R10, 0x00000000)
T9744 000:563.289 - 0.005ms returns 0
T9744 000:563.293 JLINK_WriteReg(R11, 0x00000000)
T9744 000:563.297 - 0.005ms returns 0
T9744 000:563.301 JLINK_WriteReg(R12, 0x00000000)
T9744 000:563.305 - 0.005ms returns 0
T9744 000:563.309 JLINK_WriteReg(R13 (SP), 0x20001000)
T9744 000:563.313 - 0.005ms returns 0
T9744 000:563.318 JLINK_WriteReg(R14, 0x20000001)
T9744 000:563.321 - 0.005ms returns 0
T9744 000:563.325 JLINK_WriteReg(R15 (PC), 0x200000F4)
T9744 000:563.329 - 0.005ms returns 0
T9744 000:563.333 JLINK_WriteReg(XPSR, 0x01000000)
T9744 000:563.342 - 0.010ms returns 0
T9744 000:563.346 JLINK_WriteReg(MSP, 0x20001000)
T9744 000:563.349 - 0.005ms returns 0
T9744 000:563.353 JLINK_WriteReg(PSP, 0x20001000)
T9744 000:563.357 - 0.005ms returns 0
T9744 000:563.361 JLINK_WriteReg(CFBP, 0x00000000)
T9744 000:563.365 - 0.005ms returns 0
T9744 000:563.369 JLINK_SetBPEx(Addr = 0x20000000, Type = 0xFFFFFFF2)
T9744 000:563.373 - 0.005ms returns 0x00000007
T9744 000:563.377 JLINK_Go()
T9744 000:563.384   CPU_ReadMem(4 bytes @ 0xE0001000)
T9744 000:565.285 - 1.911ms
T9744 000:565.292 JLINK_IsHalted()
T9744 000:565.496 - 0.206ms returns FALSE
T9744 000:565.502 JLINK_HasError()
T9744 000:569.378 JLINK_IsHalted()
T9744 000:569.608 - 0.243ms returns FALSE
T9744 000:569.625 JLINK_HasError()
T9744 000:571.233 JLINK_IsHalted()
T9744 000:571.502 - 0.271ms returns FALSE
T9744 000:571.508 JLINK_HasError()
T9744 000:573.225 JLINK_IsHalted()
T9744 000:573.486 - 0.263ms returns FALSE
T9744 000:573.491 JLINK_HasError()
T9744 000:575.225 JLINK_IsHalted()
T9744 000:575.514 - 0.292ms returns FALSE
T9744 000:575.520 JLINK_HasError()
T9744 000:577.353 JLINK_IsHalted()
T9744 000:577.585 - 0.244ms returns FALSE
T9744 000:577.600 JLINK_HasError()
T9744 000:579.218 JLINK_IsHalted()
T9744 000:579.555 - 0.339ms returns FALSE
T9744 000:579.561 JLINK_HasError()
T9744 000:581.214 JLINK_IsHalted()
T9744 000:581.545 - 0.335ms returns FALSE
T9744 000:581.552 JLINK_HasError()
T9744 000:583.172 JLINK_IsHalted()
T9744 000:583.447 - 0.280ms returns FALSE
T9744 000:583.457 JLINK_HasError()
T9744 000:585.240 JLINK_IsHalted()
T9744 000:587.033   CPU_ReadMem(2 bytes @ 0x20000000)
T9744 000:587.251 - 2.014ms returns TRUE
T9744 000:587.258 JLINK_ReadReg(R15 (PC))
T9744 000:587.263 - 0.007ms returns 0x20000000
T9744 000:587.268 JLINK_ClrBPEx(BPHandle = 0x00000007)
T9744 000:587.272 - 0.005ms returns 0x00
T9744 000:587.276 JLINK_ReadReg(R0)
T9744 000:587.280 - 0.005ms returns 0x00000000
T9744 000:587.551 JLINK_WriteMem(0x20000164, 0x29C Bytes, ...)
T9744 000:587.558   Data:  00 F0 28 FA C8 20 00 F0 11 FA E0 20 00 F0 22 FA ...
T9744 000:587.569   CPU_WriteMem(668 bytes @ 0x20000164)
T9744 000:590.229 - 2.683ms returns 0x29C
T9744 000:590.239 JLINK_WriteMem(0x20000400, 0x164 Bytes, ...)
T9744 000:590.243   Data:  20 46 00 F0 1B FA 08 FB 00 55 A1 46 04 EB D9 70 ...
T9744 000:590.259   CPU_WriteMem(356 bytes @ 0x20000400)
T9744 000:591.886 - 1.663ms returns 0x164
T9744 000:591.923 JLINK_HasError()
T9744 000:591.948 JLINK_WriteReg(R0, 0x08000C00)
T9744 000:591.978 - 0.039ms returns 0
T9744 000:591.990 JLINK_WriteReg(R1, 0x00000400)
T9744 000:591.993 - 0.005ms returns 0
T9744 000:591.997 JLINK_WriteReg(R2, 0x20000164)
T9744 000:592.000 - 0.005ms returns 0
T9744 000:592.004 JLINK_WriteReg(R3, 0x00000000)
T9744 000:592.008 - 0.005ms returns 0
T9744 000:592.012 JLINK_WriteReg(R4, 0x00000000)
T9744 000:592.015 - 0.005ms returns 0
T9744 000:592.019 JLINK_WriteReg(R5, 0x00000000)
T9744 000:592.022 - 0.005ms returns 0
T9744 000:592.026 JLINK_WriteReg(R6, 0x00000000)
T9744 000:592.030 - 0.005ms returns 0
T9744 000:592.034 JLINK_WriteReg(R7, 0x00000000)
T9744 000:592.037 - 0.005ms returns 0
T9744 000:592.041 JLINK_WriteReg(R8, 0x00000000)
T9744 000:592.045 - 0.005ms returns 0
T9744 000:592.048 JLINK_WriteReg(R9, 0x20000160)
T9744 000:592.052 - 0.005ms returns 0
T9744 000:592.056 JLINK_WriteReg(R10, 0x00000000)
T9744 000:592.059 - 0.005ms returns 0
T9744 000:592.063 JLINK_WriteReg(R11, 0x00000000)
T9744 000:592.066 - 0.005ms returns 0
T9744 000:592.070 JLINK_WriteReg(R12, 0x00000000)
T9744 000:592.074 - 0.004ms returns 0
T9744 000:592.078 JLINK_WriteReg(R13 (SP), 0x20001000)
T9744 000:592.081 - 0.005ms returns 0
T9744 000:592.085 JLINK_WriteReg(R14, 0x20000001)
T9744 000:592.089 - 0.005ms returns 0
T9744 000:592.092 JLINK_WriteReg(R15 (PC), 0x200000F4)
T9744 000:592.096 - 0.005ms returns 0
T9744 000:592.100 JLINK_WriteReg(XPSR, 0x01000000)
T9744 000:592.104 - 0.005ms returns 0
T9744 000:592.107 JLINK_WriteReg(MSP, 0x20001000)
T9744 000:592.111 - 0.005ms returns 0
T9744 000:592.115 JLINK_WriteReg(PSP, 0x20001000)
T9744 000:592.118 - 0.005ms returns 0
T9744 000:592.122 JLINK_WriteReg(CFBP, 0x00000000)
T9744 000:592.125 - 0.005ms returns 0
T9744 000:592.129 JLINK_SetBPEx(Addr = 0x20000000, Type = 0xFFFFFFF2)
T9744 000:592.134 - 0.005ms returns 0x00000008
T9744 000:592.138 JLINK_Go()
T9744 000:592.145   CPU_ReadMem(4 bytes @ 0xE0001000)
T9744 000:594.184 - 2.052ms
T9744 000:594.195 JLINK_IsHalted()
T9744 000:594.410 - 0.218ms returns FALSE
T9744 000:594.417 JLINK_HasError()
T9744 000:596.174 JLINK_IsHalted()
T9744 000:596.461 - 0.289ms returns FALSE
T9744 000:596.467 JLINK_HasError()
T9744 000:598.162 JLINK_IsHalted()
T9744 000:598.376 - 0.217ms returns FALSE
T9744 000:598.382 JLINK_HasError()
T9744 000:600.159 JLINK_IsHalted()
T9744 000:600.466 - 0.323ms returns FALSE
T9744 000:600.487 JLINK_HasError()
T9744 000:602.308 JLINK_IsHalted()
T9744 000:602.597 - 0.293ms returns FALSE
T9744 000:602.605 JLINK_HasError()
T9744 000:604.116 JLINK_IsHalted()
T9744 000:604.326 - 0.213ms returns FALSE
T9744 000:604.334 JLINK_HasError()
T9744 000:606.142 JLINK_IsHalted()
T9744 000:606.435 - 0.296ms returns FALSE
T9744 000:606.441 JLINK_HasError()
T9744 000:608.130 JLINK_IsHalted()
T9744 000:608.389 - 0.262ms returns FALSE
T9744 000:608.395 JLINK_HasError()
T9744 000:610.125 JLINK_IsHalted()
T9744 000:610.376 - 0.253ms returns FALSE
T9744 000:610.382 JLINK_HasError()
T9744 000:612.129 JLINK_IsHalted()
T9744 000:612.414 - 0.288ms returns FALSE
T9744 000:612.421 JLINK_HasError()
T9744 000:614.090 JLINK_IsHalted()
T9744 000:615.893   CPU_ReadMem(2 bytes @ 0x20000000)
T9744 000:616.104 - 2.017ms returns TRUE
T9744 000:616.111 JLINK_ReadReg(R15 (PC))
T9744 000:616.117 - 0.007ms returns 0x20000000
T9744 000:616.121 JLINK_ClrBPEx(BPHandle = 0x00000008)
T9744 000:616.125 - 0.005ms returns 0x00
T9744 000:616.129 JLINK_ReadReg(R0)
T9744 000:616.132 - 0.005ms returns 0x00000000
T9744 000:616.406 JLINK_WriteMem(0x20000164, 0x29C Bytes, ...)
T9744 000:616.413   Data:  06 EB 61 01 8E B2 64 1C 0A E0 2B 46 22 46 39 46 ...
T9744 000:616.424   CPU_WriteMem(668 bytes @ 0x20000164)
T9744 000:619.136 - 2.768ms returns 0x29C
T9744 000:619.204 JLINK_WriteMem(0x20000400, 0x164 Bytes, ...)
T9744 000:619.218   Data:  0C 49 08 70 05 E0 03 E0 01 20 0A 49 08 70 00 E0 ...
T9744 000:619.236   CPU_WriteMem(356 bytes @ 0x20000400)
T9744 000:620.848 - 1.663ms returns 0x164
T9744 000:620.890 JLINK_HasError()
T9744 000:620.916 JLINK_WriteReg(R0, 0x08001000)
T9744 000:620.936 - 0.022ms returns 0
T9744 000:620.941 JLINK_WriteReg(R1, 0x00000400)
T9744 000:620.944 - 0.005ms returns 0
T9744 000:620.948 JLINK_WriteReg(R2, 0x20000164)
T9744 000:620.952 - 0.005ms returns 0
T9744 000:620.956 JLINK_WriteReg(R3, 0x00000000)
T9744 000:620.959 - 0.005ms returns 0
T9744 000:620.963 JLINK_WriteReg(R4, 0x00000000)
T9744 000:620.967 - 0.005ms returns 0
T9744 000:620.971 JLINK_WriteReg(R5, 0x00000000)
T9744 000:620.974 - 0.005ms returns 0
T9744 000:620.978 JLINK_WriteReg(R6, 0x00000000)
T9744 000:620.982 - 0.005ms returns 0
T9744 000:620.986 JLINK_WriteReg(R7, 0x00000000)
T9744 000:620.989 - 0.005ms returns 0
T9744 000:620.993 JLINK_WriteReg(R8, 0x00000000)
T9744 000:620.997 - 0.005ms returns 0
T9744 000:621.001 JLINK_WriteReg(R9, 0x20000160)
T9744 000:621.004 - 0.005ms returns 0
T9744 000:621.008 JLINK_WriteReg(R10, 0x00000000)
T9744 000:621.011 - 0.005ms returns 0
T9744 000:621.015 JLINK_WriteReg(R11, 0x00000000)
T9744 000:621.019 - 0.005ms returns 0
T9744 000:621.023 JLINK_WriteReg(R12, 0x00000000)
T9744 000:621.026 - 0.005ms returns 0
T9744 000:621.030 JLINK_WriteReg(R13 (SP), 0x20001000)
T9744 000:621.034 - 0.005ms returns 0
T9744 000:621.038 JLINK_WriteReg(R14, 0x20000001)
T9744 000:621.042 - 0.005ms returns 0
T9744 000:621.046 JLINK_WriteReg(R15 (PC), 0x200000F4)
T9744 000:621.049 - 0.005ms returns 0
T9744 000:621.053 JLINK_WriteReg(XPSR, 0x01000000)
T9744 000:621.057 - 0.005ms returns 0
T9744 000:621.061 JLINK_WriteReg(MSP, 0x20001000)
T9744 000:621.064 - 0.005ms returns 0
T9744 000:621.068 JLINK_WriteReg(PSP, 0x20001000)
T9744 000:621.073 - 0.006ms returns 0
T9744 000:621.077 JLINK_WriteReg(CFBP, 0x00000000)
T9744 000:621.080 - 0.005ms returns 0
T9744 000:621.084 JLINK_SetBPEx(Addr = 0x20000000, Type = 0xFFFFFFF2)
T9744 000:621.089 - 0.005ms returns 0x00000009
T9744 000:621.093 JLINK_Go()
T9744 000:621.100   CPU_ReadMem(4 bytes @ 0xE0001000)
T9744 000:623.076 - 1.988ms
T9744 000:623.085 JLINK_IsHalted()
T9744 000:623.318 - 0.235ms returns FALSE
T9744 000:623.324 JLINK_HasError()
T9744 000:625.090 JLINK_IsHalted()
T9744 000:625.353 - 0.266ms returns FALSE
T9744 000:625.359 JLINK_HasError()
T9744 000:627.083 JLINK_IsHalted()
T9744 000:627.358 - 0.277ms returns FALSE
T9744 000:627.363 JLINK_HasError()
T9744 000:629.086 JLINK_IsHalted()
T9744 000:629.365 - 0.281ms returns FALSE
T9744 000:629.371 JLINK_HasError()
T9744 000:631.077 JLINK_IsHalted()
T9744 000:631.368 - 0.294ms returns FALSE
T9744 000:631.374 JLINK_HasError()
T9744 000:633.213 JLINK_IsHalted()
T9744 000:633.473 - 0.265ms returns FALSE
T9744 000:633.483 JLINK_HasError()
T9744 000:635.044 JLINK_IsHalted()
T9744 000:635.348 - 0.307ms returns FALSE
T9744 000:635.356 JLINK_HasError()
T9744 000:637.029 JLINK_IsHalted()
T9744 000:637.267 - 0.240ms returns FALSE
T9744 000:637.273 JLINK_HasError()
T9744 000:639.050 JLINK_IsHalted()
T9744 000:639.317 - 0.269ms returns FALSE
T9744 000:639.323 JLINK_HasError()
T9744 000:641.043 JLINK_IsHalted()
T9744 000:641.309 - 0.268ms returns FALSE
T9744 000:641.314 JLINK_HasError()
T9744 000:643.041 JLINK_IsHalted()
T9744 000:644.971   CPU_ReadMem(2 bytes @ 0x20000000)
T9744 000:645.290 - 2.254ms returns TRUE
T9744 000:645.299 JLINK_ReadReg(R15 (PC))
T9744 000:645.305 - 0.007ms returns 0x20000000
T9744 000:645.309 JLINK_ClrBPEx(BPHandle = 0x00000009)
T9744 000:645.313 - 0.005ms returns 0x00
T9744 000:645.317 JLINK_ReadReg(R0)
T9744 000:645.320 - 0.005ms returns 0x00000000
T9744 000:645.563 JLINK_WriteMem(0x20000164, 0x29C Bytes, ...)
T9744 000:645.569   Data:  10 BD 00 00 3C 00 00 20 3D 00 00 20 70 B5 00 24 ...
T9744 000:645.579   CPU_WriteMem(668 bytes @ 0x20000164)
T9744 000:648.271 - 2.713ms returns 0x29C
T9744 000:648.280 JLINK_WriteMem(0x20000400, 0x164 Bytes, ...)
T9744 000:648.284   Data:  50 00 00 20 18 00 00 20 3E 00 00 00 20 00 00 00 ...
T9744 000:648.300   CPU_WriteMem(356 bytes @ 0x20000400)
T9744 000:649.932 - 1.667ms returns 0x164
T9744 000:649.968 JLINK_HasError()
T9744 000:649.993 JLINK_WriteReg(R0, 0x08001400)
T9744 000:650.039 - 0.048ms returns 0
T9744 000:650.045 JLINK_WriteReg(R1, 0x00000400)
T9744 000:650.049 - 0.005ms returns 0
T9744 000:650.053 JLINK_WriteReg(R2, 0x20000164)
T9744 000:650.057 - 0.005ms returns 0
T9744 000:650.061 JLINK_WriteReg(R3, 0x00000000)
T9744 000:650.064 - 0.005ms returns 0
T9744 000:650.068 JLINK_WriteReg(R4, 0x00000000)
T9744 000:650.072 - 0.005ms returns 0
T9744 000:650.076 JLINK_WriteReg(R5, 0x00000000)
T9744 000:650.079 - 0.005ms returns 0
T9744 000:650.084 JLINK_WriteReg(R6, 0x00000000)
T9744 000:650.089 - 0.006ms returns 0
T9744 000:650.093 JLINK_WriteReg(R7, 0x00000000)
T9744 000:650.096 - 0.005ms returns 0
T9744 000:650.100 JLINK_WriteReg(R8, 0x00000000)
T9744 000:650.104 - 0.005ms returns 0
T9744 000:650.108 JLINK_WriteReg(R9, 0x20000160)
T9744 000:650.111 - 0.005ms returns 0
T9744 000:650.115 JLINK_WriteReg(R10, 0x00000000)
T9744 000:650.119 - 0.005ms returns 0
T9744 000:650.123 JLINK_WriteReg(R11, 0x00000000)
T9744 000:650.126 - 0.005ms returns 0
T9744 000:650.130 JLINK_WriteReg(R12, 0x00000000)
T9744 000:650.134 - 0.005ms returns 0
T9744 000:650.138 JLINK_WriteReg(R13 (SP), 0x20001000)
T9744 000:650.141 - 0.005ms returns 0
T9744 000:650.145 JLINK_WriteReg(R14, 0x20000001)
T9744 000:650.149 - 0.005ms returns 0
T9744 000:650.153 JLINK_WriteReg(R15 (PC), 0x200000F4)
T9744 000:650.157 - 0.005ms returns 0
T9744 000:650.161 JLINK_WriteReg(XPSR, 0x01000000)
T9744 000:650.164 - 0.005ms returns 0
T9744 000:650.168 JLINK_WriteReg(MSP, 0x20001000)
T9744 000:650.171 - 0.005ms returns 0
T9744 000:650.175 JLINK_WriteReg(PSP, 0x20001000)
T9744 000:650.179 - 0.005ms returns 0
T9744 000:650.183 JLINK_WriteReg(CFBP, 0x00000000)
T9744 000:650.186 - 0.005ms returns 0
T9744 000:650.190 JLINK_SetBPEx(Addr = 0x20000000, Type = 0xFFFFFFF2)
T9744 000:650.194 - 0.005ms returns 0x0000000A
T9744 000:650.199 JLINK_Go()
T9744 000:650.206   CPU_ReadMem(4 bytes @ 0xE0001000)
T9744 000:652.205 - 2.010ms
T9744 000:652.214 JLINK_IsHalted()
T9744 000:652.416 - 0.204ms returns FALSE
T9744 000:652.423 JLINK_HasError()
T9744 000:654.008 JLINK_IsHalted()
T9744 000:654.285 - 0.280ms returns FALSE
T9744 000:654.291 JLINK_HasError()
T9744 000:656.006 JLINK_IsHalted()
T9744 000:656.286 - 0.282ms returns FALSE
T9744 000:656.291 JLINK_HasError()
T9744 000:657.998 JLINK_IsHalted()
T9744 000:658.265 - 0.269ms returns FALSE
T9744 000:658.270 JLINK_HasError()
T9744 000:659.991 JLINK_IsHalted()
T9744 000:660.309 - 0.321ms returns FALSE
T9744 000:660.315 JLINK_HasError()
T9744 000:662.999 JLINK_IsHalted()
T9744 000:663.298 - 0.302ms returns FALSE
T9744 000:663.307 JLINK_HasError()
T9744 000:664.993 JLINK_IsHalted()
T9744 000:665.219 - 0.228ms returns FALSE
T9744 000:665.225 JLINK_HasError()
T9744 000:666.979 JLINK_IsHalted()
T9744 000:667.267 - 0.291ms returns FALSE
T9744 000:667.274 JLINK_HasError()
T9744 000:668.970 JLINK_IsHalted()
T9744 000:669.264 - 0.297ms returns FALSE
T9744 000:669.271 JLINK_HasError()
T9744 000:671.965 JLINK_IsHalted()
T9744 000:673.891   CPU_ReadMem(2 bytes @ 0x20000000)
T9744 000:674.300 - 2.340ms returns TRUE
T9744 000:674.309 JLINK_ReadReg(R15 (PC))
T9744 000:674.314 - 0.006ms returns 0x20000000
T9744 000:674.318 JLINK_ClrBPEx(BPHandle = 0x0000000A)
T9744 000:674.322 - 0.005ms returns 0x00
T9744 000:674.326 JLINK_ReadReg(R0)
T9744 000:674.330 - 0.005ms returns 0x00000000
T9744 000:674.568 JLINK_WriteMem(0x20000164, 0x29C Bytes, ...)
T9744 000:674.575   Data:  48 74 0A 48 00 88 20 F0 0F 00 08 49 08 80 06 48 ...
T9744 000:674.585   CPU_WriteMem(668 bytes @ 0x20000164)
T9744 000:677.279 - 2.713ms returns 0x29C
T9744 000:677.285 JLINK_WriteMem(0x20000400, 0x164 Bytes, ...)
T9744 000:677.289   Data:  01 00 18 B1 00 21 30 46 00 F0 53 FE 04 F0 02 00 ...
T9744 000:677.296   CPU_WriteMem(356 bytes @ 0x20000400)
T9744 000:679.088 - 1.807ms returns 0x164
T9744 000:679.099 JLINK_HasError()
T9744 000:679.136 JLINK_WriteReg(R0, 0x08001800)
T9744 000:679.142 - 0.007ms returns 0
T9744 000:679.146 JLINK_WriteReg(R1, 0x00000400)
T9744 000:679.150 - 0.005ms returns 0
T9744 000:679.153 JLINK_WriteReg(R2, 0x20000164)
T9744 000:679.157 - 0.005ms returns 0
T9744 000:679.161 JLINK_WriteReg(R3, 0x00000000)
T9744 000:679.164 - 0.006ms returns 0
T9744 000:679.170 JLINK_WriteReg(R4, 0x00000000)
T9744 000:679.173 - 0.004ms returns 0
T9744 000:679.177 JLINK_WriteReg(R5, 0x00000000)
T9744 000:679.180 - 0.005ms returns 0
T9744 000:679.184 JLINK_WriteReg(R6, 0x00000000)
T9744 000:679.188 - 0.005ms returns 0
T9744 000:679.191 JLINK_WriteReg(R7, 0x00000000)
T9744 000:679.195 - 0.004ms returns 0
T9744 000:679.199 JLINK_WriteReg(R8, 0x00000000)
T9744 000:679.202 - 0.005ms returns 0
T9744 000:679.206 JLINK_WriteReg(R9, 0x20000160)
T9744 000:679.209 - 0.004ms returns 0
T9744 000:679.213 JLINK_WriteReg(R10, 0x00000000)
T9744 000:679.216 - 0.004ms returns 0
T9744 000:679.220 JLINK_WriteReg(R11, 0x00000000)
T9744 000:679.223 - 0.004ms returns 0
T9744 000:679.227 JLINK_WriteReg(R12, 0x00000000)
T9744 000:679.231 - 0.004ms returns 0
T9744 000:679.234 JLINK_WriteReg(R13 (SP), 0x20001000)
T9744 000:679.238 - 0.005ms returns 0
T9744 000:679.242 JLINK_WriteReg(R14, 0x20000001)
T9744 000:679.245 - 0.004ms returns 0
T9744 000:679.249 JLINK_WriteReg(R15 (PC), 0x200000F4)
T9744 000:679.252 - 0.005ms returns 0
T9744 000:679.256 JLINK_WriteReg(XPSR, 0x01000000)
T9744 000:679.260 - 0.004ms returns 0
T9744 000:679.264 JLINK_WriteReg(MSP, 0x20001000)
T9744 000:679.267 - 0.004ms returns 0
T9744 000:679.271 JLINK_WriteReg(PSP, 0x20001000)
T9744 000:679.274 - 0.005ms returns 0
T9744 000:679.278 JLINK_WriteReg(CFBP, 0x00000000)
T9744 000:679.281 - 0.005ms returns 0
T9744 000:679.285 JLINK_SetBPEx(Addr = 0x20000000, Type = 0xFFFFFFF2)
T9744 000:679.289 - 0.005ms returns 0x0000000B
T9744 000:679.293 JLINK_Go()
T9744 000:679.301   CPU_ReadMem(4 bytes @ 0xE0001000)
T9744 000:681.430 - 2.142ms
T9744 000:681.439 JLINK_IsHalted()
T9744 000:681.640 - 0.204ms returns FALSE
T9744 000:681.646 JLINK_HasError()
T9744 000:682.906 JLINK_IsHalted()
T9744 000:683.118 - 0.214ms returns FALSE
T9744 000:683.125 JLINK_HasError()
T9744 000:684.930 JLINK_IsHalted()
T9744 000:685.240 - 0.313ms returns FALSE
T9744 000:685.246 JLINK_HasError()
T9744 000:687.964 JLINK_IsHalted()
T9744 000:688.249 - 0.291ms returns FALSE
T9744 000:688.260 JLINK_HasError()
T9744 000:690.073 JLINK_IsHalted()
T9744 000:690.394 - 0.325ms returns FALSE
T9744 000:690.402 JLINK_HasError()
T9744 000:691.913 JLINK_IsHalted()
T9744 000:692.241 - 0.331ms returns FALSE
T9744 000:692.248 JLINK_HasError()
T9744 000:693.900 JLINK_IsHalted()
T9744 000:694.286 - 0.391ms returns FALSE
T9744 000:694.296 JLINK_HasError()
T9744 000:695.904 JLINK_IsHalted()
T9744 000:696.276 - 0.378ms returns FALSE
T9744 000:696.300 JLINK_HasError()
T9744 000:697.885 JLINK_IsHalted()
T9744 000:698.153 - 0.271ms returns FALSE
T9744 000:698.159 JLINK_HasError()
T9744 000:699.889 JLINK_IsHalted()
T9744 000:701.950   CPU_ReadMem(2 bytes @ 0x20000000)
T9744 000:702.308 - 2.423ms returns TRUE
T9744 000:702.316 JLINK_ReadReg(R15 (PC))
T9744 000:702.321 - 0.007ms returns 0x20000000
T9744 000:702.325 JLINK_ClrBPEx(BPHandle = 0x0000000B)
T9744 000:702.329 - 0.005ms returns 0x00
T9744 000:702.333 JLINK_ReadReg(R0)
T9744 000:702.337 - 0.005ms returns 0x00000000
T9744 000:702.614 JLINK_WriteMem(0x20000164, 0x29C Bytes, ...)
T9744 000:702.621   Data:  00 F0 A9 FD 04 F0 08 00 98 B1 28 46 02 F0 EA F9 ...
T9744 000:702.632   CPU_WriteMem(668 bytes @ 0x20000164)
T9744 000:705.361 - 2.753ms returns 0x29C
T9744 000:705.373 JLINK_WriteMem(0x20000400, 0x164 Bytes, ...)
T9744 000:705.377   Data:  40 F2 25 51 20 46 00 F0 65 FD 12 E0 0D 48 84 42 ...
T9744 000:705.384   CPU_WriteMem(356 bytes @ 0x20000400)
T9744 000:706.996 - 1.627ms returns 0x164
T9744 000:707.005 JLINK_HasError()
T9744 000:707.010 JLINK_WriteReg(R0, 0x08001C00)
T9744 000:707.015 - 0.006ms returns 0
T9744 000:707.019 JLINK_WriteReg(R1, 0x00000400)
T9744 000:707.022 - 0.005ms returns 0
T9744 000:707.026 JLINK_WriteReg(R2, 0x20000164)
T9744 000:707.030 - 0.004ms returns 0
T9744 000:707.034 JLINK_WriteReg(R3, 0x00000000)
T9744 000:707.037 - 0.005ms returns 0
T9744 000:707.041 JLINK_WriteReg(R4, 0x00000000)
T9744 000:707.044 - 0.005ms returns 0
T9744 000:707.048 JLINK_WriteReg(R5, 0x00000000)
T9744 000:707.052 - 0.005ms returns 0
T9744 000:707.056 JLINK_WriteReg(R6, 0x00000000)
T9744 000:707.059 - 0.005ms returns 0
T9744 000:707.064 JLINK_WriteReg(R7, 0x00000000)
T9744 000:707.067 - 0.004ms returns 0
